
T2388 000:000 SEGGER J-Link V4.72a Log File (0000ms, 0000ms total)
T2388 000:000 DLL Compiled: Jun 26 2013 11:49:14 (0000ms, 0000ms total)
T2388 000:000 Logging started @ 2017-09-18 15:53 (0000ms, 0000ms total)
T2388 000:000 JLINK_SetWarnOutHandler(...) (0000ms, 0000ms total)
T2388 000:000 JLINK_OpenEx(...)
Firmware: J-Link V9 compiled Jun  2 2222 22:22:22
Hardware: V9.40
S/N: 59401308
Feature(s): GDB, RDI, FlashBP, FlashDL, JFlash, RDDI  returns O.K. (0039ms, 0039ms total)
T2388 000:039 JLINK_GetEmuCaps()  returns 0xB9FF7BBF (0000ms, 0039ms total)
T2388 000:039 JLINK_TIF_GetAvailable(...) (0001ms, 0040ms total)
T2388 000:040 JLINK_SetErrorOutHandler(...) (0000ms, 0040ms total)
T2388 000:040 JLINK_ExecCommand("ProjectFile = "C:\Users\Administrator\Documents\GitHub\Mower_project\Tesla_1.0.1.170516_Alpha\mdk_Prj\JLinkSettings.ini"", ...)
                JLINK_AddMirrorAreaEx(Addr = 0x00000000, Size = 0x00000000) (0000ms, 0000ms total)
              Device "CORTEX-M4" selected (0 KB flash, 0 KB RAM).  returns 0x00 (0002ms, 0042ms total)
T2388 000:042 JLINK_ExecCommand("Device = STM32F429IGTx", ...)
                JLINK_AddMirrorAreaEx(Addr = 0x00000000, Size = 0x00000000) (0000ms, 0000ms total)
              Device "CORTEX-M4" selected (0 KB flash, 0 KB RAM).  returns 0x00 (0000ms, 0042ms total)
T2388 000:042 JLINK_ExecCommand("DisableConnectionTimeout", ...)  returns 0x00 (0000ms, 0042ms total)
T2388 000:043 JLINK_GetHardwareVersion()  returns 0x16F30 (0000ms, 0042ms total)
T2388 000:043 JLINK_GetDLLVersion()  returns 47201 (0000ms, 0042ms total)
T2388 000:043 JLINK_GetFirmwareString(...) (0000ms, 0042ms total)
T2388 000:043 JLINK_GetDLLVersion()  returns 47201 (0000ms, 0042ms total)
T2388 000:043 JLINK_GetCompileDateTime() (0000ms, 0042ms total)
T2388 000:043 JLINK_GetFirmwareString(...) (0000ms, 0042ms total)
T2388 000:043 JLINK_GetHardwareVersion()  returns 0x16F30 (0000ms, 0042ms total)
T2388 000:043 JLINK_TIF_Select(JLINKARM_TIF_JTAG)  returns 0x00 (0000ms, 0042ms total)
T2388 000:043 JLINK_SetSpeed(20000) (0000ms, 0042ms total)
T2388 000:043 JLINK_GetIdData(...) >0x2F8 JTAG>TotalIRLen = 9, IRPrint = 0x0011 >0x30 JTAG> >0x210 JTAG> >0x80 JTAG> >0x40 JTAG> >0x40 JTAG> >0x50 JTAG> >0x40 JTAG> >0x40 JTAG> >0x40 JTAG> >0x50 JTAG> >0x40 JTAG> >0x40 JTAG> >0x40 JTAG> >0x30 JTAG> >0x40 JTAG> >0x50 JTAG> >0x40 JTAG> >0x38 JTAG> >0x80 JTAG> >0x40 JTAG> >0x40 JTAG> >0x50 JTAG> >0x40 JTAG> >0x40 JTAG> >0x40 JTAG> >0x50 JTAG> >0x40 JTAG> >0x40 JTAG> >0x30 JTAG> >0x40 JTAG> >0x40 JTAG> >0x40 JTAG> >0x40 JTAG> >0x40 JTAG> >0x50 JTAG>
 >0x40 JTAG> >0x80 JTAG> >0x40 JTAG> >0x30 JTAG> >0x40 JTAG> >0x40 JTAG> >0x40 JTAG> >0x40 JTAG> >0x40 JTAG> >0x50 JTAG> >0x40 JTAG> >0x80 JTAG> >0x40 JTAG> >0x30 JTAG> >0x40 JTAG> >0x50 JTAG> >0x40 JTAG> >0x40 JTAG> >0x40 JTAG> >0x30 JTAG> >0x40 JTAG> >0x50 JTAG> >0x40 JTAG>Found Cortex-M4 r0p1, Little endian. >0x50 JTAG> >0x50 JTAG> >0x40 JTAG> >0x40 JTAG> >0x30 JTAG> >0x30 JTAG> >0x50 JTAG> >0x40 JTAG> >0x80 JTAG> >0x40 JTAG> >0x30 JTAG> >0x40 JTAG> >0x50 JTAG> >0x40 JTAG> >0x40 JTAG> >0x40 JTAG>
 >0x30 JTAG> >0x40 JTAG> >0x50 JTAG> >0x40 JTAG>TPIU fitted. >0x40 JTAG> >0x40 JTAG> >0x30 JTAG> >0x40 JTAG> >0x50 JTAG> >0x40 JTAG>ETM fitted. >0x40 JTAG> >0x40 JTAG> >0x30 JTAG> >0x40 JTAG> >0x50 JTAG> >0x40 JTAG> >0x40 JTAG> >0x40 JTAG> >0x30 JTAG> >0x40 JTAG> >0x50 JTAG> >0x40 JTAG>FPUnit: 6 code (BP) slots and 2 literal slots >0x40 JTAG> >0x40 JTAG> >0x30 JTAG> >0x40 JTAG> >0x50 JTAG> >0x40 JTAG> >0x40 JTAG> >0x40 JTAG> >0x30 JTAG> >0x40 JTAG> >0x50 JTAG> >0x40 JTAG> >0x40 JTAG> >0x40 JTAG>
 >0x30 JTAG> >0x30 JTAG> >0x50 JTAG> >0x40 JTAG> ScanLen=9 NumDevices=2 aId[0]=0x4BA00477 aIrRead[0]=0 aScanLen[0]=0 aScanRead[0]=0 (0121ms, 0163ms total)
T2388 000:164 JLINK_JTAG_GetDeviceID(DeviceIndex = 0)  returns 0x4BA00477 (0000ms, 0163ms total)
T2388 000:164 JLINK_JTAG_GetDeviceInfo(DeviceIndex = 0)  returns 0x00 (0000ms, 0163ms total)
T2388 000:164 JLINK_JTAG_GetDeviceID(DeviceIndex = 1)  returns 0x6419041 (0000ms, 0163ms total)
T2388 000:164 JLINK_JTAG_GetDeviceInfo(DeviceIndex = 1)  returns 0x00 (0000ms, 0163ms total)
T2388 000:164 JLINK_GetDLLVersion()  returns 47201 (0000ms, 0163ms total)
T2388 000:164 JLINK_CORE_GetFound()  returns 0xE0000FF (0001ms, 0164ms total)
T2388 000:165 JLINK_GetDebugInfo(0x100) -- Value=0xE00FF003  returns 0x00 (0000ms, 0164ms total)
T2388 000:165 JLINK_GetDebugInfo(0x101)  returns 0xFFFFFFFF (0000ms, 0164ms total)
T2388 000:165 JLINK_ReadMemEx(0xE0041FF0, 0x0010 Bytes, ..., AccessWidth = 33554436) -- CPU is running -- CPU_ReadMem(16 bytes @ 0xE0041FF0) -- Data:  0D 00 00 00 90 00 00 00 05 00 00 00 B1 00 00 00  returns 0x10 (0001ms, 0165ms total)
T2388 000:166 JLINK_GetDebugInfo(0x102)  returns 0xFFFFFFFF (0000ms, 0165ms total)
T2388 000:166 JLINK_GetDebugInfo(0x103)  returns 0xFFFFFFFF (0000ms, 0165ms total)
T2388 000:166 JLINK_ReadMemEx(0xE0040FF0, 0x0010 Bytes, ..., AccessWidth = 33554436) -- CPU is running -- CPU_ReadMem(16 bytes @ 0xE0040FF0) -- Data:  0D 00 00 00 90 00 00 00 05 00 00 00 B1 00 00 00  returns 0x10 (0001ms, 0166ms total)
T2388 000:167 JLINK_GetDebugInfo(0x104)  returns 0xFFFFFFFF (0000ms, 0166ms total)
T2388 000:167 JLINK_GetDebugInfo(0x105)  returns 0xFFFFFFFF (0000ms, 0166ms total)
T2388 000:167 JLINK_GetDebugInfo(0x106)  returns 0xFFFFFFFF (0000ms, 0166ms total)
T2388 000:167 JLINK_GetDebugInfo(0x107)  returns 0xFFFFFFFF (0000ms, 0166ms total)
T2388 000:167 JLINK_GetDebugInfo(0x10C)  returns 0xFFFFFFFF (0001ms, 0167ms total)
T2388 000:168 JLINK_ReadMemU32(0xE000EF40, 0x0001 Items, ...) -- CPU is running -- CPU_ReadMem(4 bytes @ 0xE000EF40) -- Data:  21 00 11 10  returns 0x01 (0000ms, 0167ms total)
T2388 000:168 JLINK_ReadMemU32(0xE000EF44, 0x0001 Items, ...) -- CPU is running -- CPU_ReadMem(4 bytes @ 0xE000EF44) -- Data:  11 00 00 11  returns 0x01 (0001ms, 0168ms total)
T2388 000:169 JLINK_ReadMemU32(0xE000ED00, 0x0001 Items, ...) -- CPU is running -- CPU_ReadMem(4 bytes @ 0xE000ED00) -- Data:  41 C2 0F 41  returns 0x01 (0001ms, 0169ms total)
T2388 000:170 JLINK_GetDebugInfo(0x10F)  returns 0xFFFFFFFF (0000ms, 0169ms total)
T2388 000:170 JLINK_SetResetType(JLINKARM_RESET_TYPE_NORMAL)  returns JLINKARM_RESET_TYPE_NORMAL (0000ms, 0169ms total)
T2388 000:170 JLINK_Reset() >0x88 JTAG> >0x80 JTAG> >0x40 JTAG> >0x40 JTAG> >0x50 JTAG> >0x40 JTAG> >0x40 JTAG> >0x40 JTAG> >0x50 JTAG> >0x40 JTAG> >0x40 JTAG> >0x30 JTAG> >0x40 JTAG> >0x40 JTAG> >0x40 JTAG> >0x40 JTAG> >0x40 JTAG> >0x50 JTAG> >0x40 JTAG> >0x80 JTAG> >0x40 JTAG> >0x30 JTAG> >0x40 JTAG> >0x40 JTAG> >0x40 JTAG> >0x40 JTAG> >0x40 JTAG> >0x50 JTAG> >0x40 JTAG> >0x80 JTAG> >0x40 JTAG> >0x30 JTAG> >0x40 JTAG> >0x50 JTAG> >0x40 JTAG> >0x40 JTAG> >0x40 JTAG> >0x30 JTAG> >0x40 JTAG> >0x50 JTAG>
 >0x40 JTAG>Found Cortex-M4 r0p1, Little endian. >0x50 JTAG> >0x50 JTAG> >0x40 JTAG> >0x40 JTAG> >0x30 JTAG> >0x30 JTAG> >0x50 JTAG> >0x40 JTAG> >0x80 JTAG> >0x40 JTAG> >0x30 JTAG> >0x40 JTAG> >0x50 JTAG> >0x40 JTAG> >0x40 JTAG> >0x40 JTAG> >0x30 JTAG> >0x40 JTAG> >0x50 JTAG> >0x40 JTAG>TPIU fitted. >0x40 JTAG> >0x40 JTAG> >0x30 JTAG> >0x40 JTAG> >0x50 JTAG> >0x40 JTAG>ETM fitted. >0x40 JTAG> >0x40 JTAG> >0x30 JTAG> >0x40 JTAG> >0x50 JTAG> >0x40 JTAG> >0x40 JTAG> >0x40 JTAG> >0x30 JTAG> >0x40 JTAG>
 >0x50 JTAG> >0x40 JTAG>FPUnit: 6 code (BP) slots and 2 literal slots >0x40 JTAG> >0x40 JTAG> >0x30 JTAG> >0x40 JTAG> >0x50 JTAG> >0x40 JTAG> >0x40 JTAG> >0x40 JTAG> >0x30 JTAG> >0x40 JTAG> >0x50 JTAG> >0x40 JTAG> >0x40 JTAG> >0x40 JTAG> >0x30 JTAG> >0x30 JTAG> >0x50 JTAG> >0x40 JTAG> -- CPU is running -- CPU_WriteMem(4 bytes @ 0xE000EDF0) -- CPU is running -- CPU_WriteMem(4 bytes @ 0xE000EDFC) -- CPU is running -- CPU_WriteMem(4 bytes @ 0xE000ED0C) -- CPU is running -- CPU_ReadMem(4 bytes @ 0xE000EDF0)
 -- CPU is running -- CPU_ReadMem(4 bytes @ 0xE000EDF0) -- CPU is running -- CPU_WriteMem(4 bytes @ 0xE000EDF0) -- CPU is running -- CPU_WriteMem(4 bytes @ 0xE000EDFC) -- CPU is running -- CPU_ReadMem(4 bytes @ 0xE000EDF0) >0xD0 JTAG> >0x40 JTAG> >0x30 JTAG> >0x40 JTAG> >0x50 JTAG> >0x40 JTAG> -- CPU_WriteMem(4 bytes @ 0xE000EDFC) -- CPU_WriteMem(4 bytes @ 0xE0001028) -- CPU_WriteMem(4 bytes @ 0xE0001038) -- CPU_WriteMem(4 bytes @ 0xE0001048) -- CPU_WriteMem(4 bytes @ 0xE0001058)
 -- CPU_WriteMem(4 bytes @ 0xE0002000) (0132ms, 0301ms total)
T2388 000:302 JLINK_ReadReg(R15 (PC))  returns 0x080002B4 (0000ms, 0301ms total)
T2388 000:302 JLINK_ReadReg(XPSR)  returns 0x01000000 (0000ms, 0301ms total)
T2388 000:302 JLINK_Halt()  returns 0x00 (0000ms, 0301ms total)
T2388 000:302 JLINK_ReadMemU32(0xE000EDF0, 0x0001 Items, ...) -- CPU_ReadMem(4 bytes @ 0xE000EDF0) -- Data:  03 00 03 00  returns 0x01 (0001ms, 0302ms total)
T2388 000:303 JLINK_WriteU32(0xE000EDF0, 0xA05F0003) -- CPU_WriteMem(4 bytes @ 0xE000EDF0)  returns 0x00 (0001ms, 0303ms total)
T2388 000:304 JLINK_WriteU32(0xE000EDFC, 0x01000000) -- CPU_WriteMem(4 bytes @ 0xE000EDFC)  returns 0x00 (0001ms, 0304ms total)
T2388 000:305 JLINK_GetHWStatus(...)  returns 0x00 (0001ms, 0305ms total)
T2388 000:306 JLINK_GetNumBPUnits(Type = 0xFFFFFF00)  returns 0x06 (0000ms, 0305ms total)
T2388 000:306 JLINK_GetNumBPUnits(Type = 0xF0)  returns 0x2000 (0000ms, 0305ms total)
T2388 000:306 JLINK_GetNumWPUnits()  returns 0x04 (0000ms, 0305ms total)
T2388 000:306 JLINK_GetSpeed()  returns 0x3A98 (0000ms, 0305ms total)
T2388 000:306 JLINK_ReadMemU32(0xE000E004, 0x0001 Items, ...) -- CPU_ReadMem(4 bytes @ 0xE000E004) -- Data:  02 00 00 00  returns 0x01 (0001ms, 0306ms total)
T2388 000:307 JLINK_ReadMemU32(0xE000E004, 0x0001 Items, ...) -- CPU_ReadMem(4 bytes @ 0xE000E004) -- Data:  02 00 00 00  returns 0x01 (0001ms, 0307ms total)
T2388 000:308 JLINK_WriteMemEx(0xE0001000, 0x001C Bytes, ..., AccessWidth = 33554436) -- Data:  01 00 00 00 00 00 00 00 00 00 00 00 00 00 00 00 ... -- CPU_WriteMem(28 bytes @ 0xE0001000)  returns 0x1C (0001ms, 0308ms total)
T2388 000:309 JLINK_ReadReg(R15 (PC))  returns 0x080002B4 (0000ms, 0308ms total)
T2388 000:309 JLINK_ReadReg(XPSR)  returns 0x01000000 (0000ms, 0308ms total)
T2388 000:443 JLINK_SetResetType(JLINKARM_RESET_TYPE_NORMAL)  returns JLINKARM_RESET_TYPE_NORMAL (0000ms, 0308ms total)
T2388 000:443 JLINK_Reset() >0x38 JTAG> >0x80 JTAG> >0x40 JTAG> >0x40 JTAG> >0x50 JTAG> >0x40 JTAG> >0x40 JTAG> >0x40 JTAG> >0x50 JTAG> >0x40 JTAG> >0x40 JTAG> >0x30 JTAG> >0x40 JTAG> >0x40 JTAG> >0x40 JTAG> >0x40 JTAG> >0x40 JTAG> >0x50 JTAG> >0x40 JTAG> >0x80 JTAG> >0x40 JTAG> >0x30 JTAG> >0x40 JTAG> >0x40 JTAG> >0x40 JTAG> >0x40 JTAG> >0x40 JTAG> >0x50 JTAG> >0x40 JTAG> >0x80 JTAG> >0x40 JTAG> >0x30 JTAG> >0x40 JTAG> >0x50 JTAG> >0x40 JTAG> >0x40 JTAG> >0x40 JTAG> >0x30 JTAG> >0x40 JTAG> >0x50 JTAG>
 >0x40 JTAG>Found Cortex-M4 r0p1, Little endian. >0x50 JTAG> >0x50 JTAG> >0x40 JTAG> >0x40 JTAG> >0x30 JTAG> >0x30 JTAG> >0x50 JTAG> >0x40 JTAG> >0x80 JTAG> >0x40 JTAG> >0x30 JTAG> >0x40 JTAG> >0x50 JTAG> >0x40 JTAG> >0x40 JTAG> >0x40 JTAG> >0x30 JTAG> >0x40 JTAG> >0x50 JTAG> >0x40 JTAG>TPIU fitted. >0x40 JTAG> >0x40 JTAG> >0x30 JTAG> >0x40 JTAG> >0x50 JTAG> >0x40 JTAG>ETM fitted. >0x40 JTAG> >0x40 JTAG> >0x30 JTAG> >0x40 JTAG> >0x50 JTAG> >0x40 JTAG> >0x40 JTAG> >0x40 JTAG> >0x30 JTAG> >0x40 JTAG>
 >0x50 JTAG> >0x40 JTAG>FPUnit: 6 code (BP) slots and 2 literal slots >0x40 JTAG> >0x40 JTAG> >0x30 JTAG> >0x40 JTAG> >0x50 JTAG> >0x40 JTAG> >0x40 JTAG> >0x40 JTAG> >0x30 JTAG> >0x40 JTAG> >0x50 JTAG> >0x40 JTAG> >0x40 JTAG> >0x40 JTAG> >0x30 JTAG> >0x30 JTAG> >0x50 JTAG> >0x40 JTAG> -- CPU_WriteMem(4 bytes @ 0xE000EDF0) -- CPU_WriteMem(4 bytes @ 0xE000EDFC) -- CPU_WriteMem(4 bytes @ 0xE000ED0C) -- CPU_ReadMem(4 bytes @ 0xE000EDF0) -- CPU_ReadMem(4 bytes @ 0xE000EDF0)
 -- CPU_WriteMem(4 bytes @ 0xE000EDF0) -- CPU_WriteMem(4 bytes @ 0xE000EDFC) -- CPU is running -- CPU_ReadMem(4 bytes @ 0xE000EDF0) >0xD0 JTAG> >0x40 JTAG> >0x30 JTAG> >0x40 JTAG> >0x50 JTAG> >0x40 JTAG> -- CPU_WriteMem(4 bytes @ 0xE000EDFC) -- CPU_WriteMem(4 bytes @ 0xE0001028) -- CPU_WriteMem(4 bytes @ 0xE0001038) -- CPU_WriteMem(4 bytes @ 0xE0001048) -- CPU_WriteMem(4 bytes @ 0xE0001058) -- CPU_WriteMem(4 bytes @ 0xE0002000) (0133ms, 0441ms total)
T2388 000:576 JLINK_ReadReg(R15 (PC))  returns 0x080002B4 (0000ms, 0441ms total)
T2388 000:576 JLINK_ReadReg(XPSR)  returns 0x01000000 (0000ms, 0441ms total)
T2388 000:681 JLINK_ReadMemEx(0x080002B4, 0x003C Bytes, ..., AccessWidth = 33554432)Mis-aligned memory write: Address: 0x080002B4, NumBytes: 60, Alignment: 2 (Halfword-aligned)
  ***** Mis-aligned memory write: Address: 0x080002B4, NumBytes: 60, Alignment: 2 (Halfword-aligned) -- CPU_ReadMem(60 bytes @ 0x080002B4) -- Data:  0A 48 80 47 0A 48 80 47 0A 48 00 47 FE E7 FE E7 ...  returns 0x3C (0001ms, 0442ms total)
T2388 001:215 JLINK_ReadReg(R0)  returns 0x00000000 (0002ms, 0444ms total)
T2388 001:217 JLINK_ReadReg(R1)  returns 0x00000000 (0000ms, 0444ms total)
T2388 001:217 JLINK_ReadReg(R2)  returns 0x00000000 (0000ms, 0444ms total)
T2388 001:217 JLINK_ReadReg(R3)  returns 0x00000000 (0000ms, 0444ms total)
T2388 001:217 JLINK_ReadReg(R4)  returns 0x00000000 (0000ms, 0444ms total)
T2388 001:217 JLINK_ReadReg(R5)  returns 0x00000000 (0000ms, 0444ms total)
T2388 001:217 JLINK_ReadReg(R6)  returns 0x00000000 (0000ms, 0444ms total)
T2388 001:217 JLINK_ReadReg(R7)  returns 0x00000000 (0000ms, 0444ms total)
T2388 001:217 JLINK_ReadReg(R8)  returns 0x00000000 (0000ms, 0444ms total)
T2388 001:217 JLINK_ReadReg(R9)  returns 0x00000000 (0000ms, 0444ms total)
T2388 001:217 JLINK_ReadReg(R10)  returns 0x00000000 (0000ms, 0444ms total)
T2388 001:217 JLINK_ReadReg(R11)  returns 0x00000000 (0000ms, 0444ms total)
T2388 001:217 JLINK_ReadReg(R12)  returns 0x00000000 (0000ms, 0444ms total)
T2388 001:217 JLINK_ReadReg(R13 (SP))  returns 0x20008190 (0000ms, 0444ms total)
T2388 001:217 JLINK_ReadReg(R14)  returns 0xFFFFFFFF (0000ms, 0444ms total)
T2388 001:217 JLINK_ReadReg(R15 (PC))  returns 0x080002B4 (0000ms, 0444ms total)
T2388 001:217 JLINK_ReadReg(XPSR)  returns 0x01000000 (0000ms, 0444ms total)
T2388 001:217 JLINK_ReadReg(MSP)  returns 0x20008190 (0000ms, 0444ms total)
T2388 001:217 JLINK_ReadReg(PSP)  returns 0x00000000 (0000ms, 0444ms total)
T2388 001:217 JLINK_ReadReg(CFBP)  returns 0x00000000 (0000ms, 0444ms total)
T2388 001:217 JLINK_ReadReg(FPSCR)  returns 0x00000000 (0003ms, 0447ms total)
T2388 001:220 JLINK_ReadReg(FPS0)  returns 0x00000000 (0000ms, 0447ms total)
T2388 001:220 JLINK_ReadReg(FPS1)  returns 0x00000000 (0000ms, 0447ms total)
T2388 001:220 JLINK_ReadReg(FPS2)  returns 0x00000000 (0000ms, 0447ms total)
T2388 001:220 JLINK_ReadReg(FPS3)  returns 0x00000000 (0000ms, 0447ms total)
T2388 001:220 JLINK_ReadReg(FPS4)  returns 0x00000000 (0000ms, 0447ms total)
T2388 001:220 JLINK_ReadReg(FPS5)  returns 0x00000000 (0000ms, 0447ms total)
T2388 001:220 JLINK_ReadReg(FPS6)  returns 0x00000000 (0000ms, 0447ms total)
T2388 001:220 JLINK_ReadReg(FPS7)  returns 0x00000000 (0000ms, 0447ms total)
T2388 001:220 JLINK_ReadReg(FPS8)  returns 0x00000000 (0000ms, 0447ms total)
T2388 001:220 JLINK_ReadReg(FPS9)  returns 0x00000000 (0000ms, 0447ms total)
T2388 001:220 JLINK_ReadReg(FPS10)  returns 0x00000000 (0000ms, 0447ms total)
T2388 001:220 JLINK_ReadReg(FPS11)  returns 0x00000000 (0000ms, 0447ms total)
T2388 001:220 JLINK_ReadReg(FPS12)  returns 0x00000000 (0000ms, 0447ms total)
T2388 001:220 JLINK_ReadReg(FPS13)  returns 0x00000000 (0000ms, 0447ms total)
T2388 001:220 JLINK_ReadReg(FPS14)  returns 0x00000000 (0000ms, 0447ms total)
T2388 001:220 JLINK_ReadReg(FPS15)  returns 0x00000000 (0000ms, 0447ms total)
T2388 001:220 JLINK_ReadReg(FPS16)  returns 0x00000000 (0000ms, 0447ms total)
T2388 001:220 JLINK_ReadReg(FPS17)  returns 0x00000000 (0000ms, 0447ms total)
T2388 001:220 JLINK_ReadReg(FPS18)  returns 0x00000000 (0000ms, 0447ms total)
T2388 001:220 JLINK_ReadReg(FPS19)  returns 0x00000000 (0000ms, 0447ms total)
T2388 001:220 JLINK_ReadReg(FPS20)  returns 0x00000000 (0000ms, 0447ms total)
T2388 001:220 JLINK_ReadReg(FPS21)  returns 0x00000000 (0000ms, 0447ms total)
T2388 001:220 JLINK_ReadReg(FPS22)  returns 0x00000000 (0000ms, 0447ms total)
T2388 001:220 JLINK_ReadReg(FPS23)  returns 0x00000000 (0000ms, 0447ms total)
T2388 001:220 JLINK_ReadReg(FPS24)  returns 0x00000000 (0000ms, 0447ms total)
T2388 001:220 JLINK_ReadReg(FPS25)  returns 0x00000000 (0000ms, 0447ms total)
T2388 001:220 JLINK_ReadReg(FPS26)  returns 0x00000000 (0000ms, 0447ms total)
T2388 001:220 JLINK_ReadReg(FPS27)  returns 0x00000000 (0000ms, 0447ms total)
T2388 001:220 JLINK_ReadReg(FPS28)  returns 0x00000000 (0000ms, 0447ms total)
T2388 001:220 JLINK_ReadReg(FPS29)  returns 0x00000000 (0000ms, 0447ms total)
T2388 001:220 JLINK_ReadReg(FPS30)  returns 0x00000000 (0000ms, 0447ms total)
T2388 001:220 JLINK_ReadReg(FPS31)  returns 0x00000000 (0000ms, 0447ms total)
T2388 001:220 JLINK_ReadMemEx(0x2000081C, 0x0004 Bytes, ..., AccessWidth = 33554432)Mis-aligned memory write: Address: 0x2000081C, NumBytes: 4, Alignment: 2 (Halfword-aligned)
  ***** Mis-aligned memory write: Address: 0x2000081C, NumBytes: 4, Alignment: 2 (Halfword-aligned) -- CPU_ReadMem(4 bytes @ 0x2000081C) -- Data:  00 00 00 00  returns 0x04 (0001ms, 0448ms total)
T2388 001:224 JLINK_ReadMemEx(0x20000820, 0x0004 Bytes, ..., AccessWidth = 33554432)Mis-aligned memory write: Address: 0x20000820, NumBytes: 4, Alignment: 2 (Halfword-aligned)
  ***** Mis-aligned memory write: Address: 0x20000820, NumBytes: 4, Alignment: 2 (Halfword-aligned) -- CPU_ReadMem(4 bytes @ 0x20000820) -- Data:  00 00 00 00  returns 0x04 (0001ms, 0449ms total)
T2388 001:241 JLINK_ReadMemEx(0x00000000, 0x0004 Bytes, ..., AccessWidth = 33554432)Mis-aligned memory write: Address: 0x00000000, NumBytes: 4, Alignment: 2 (Halfword-aligned)
  ***** Mis-aligned memory write: Address: 0x00000000, NumBytes: 4, Alignment: 2 (Halfword-aligned) -- CPU_ReadMem(4 bytes @ 0x00000000) -- Data:  90 81 00 20  returns 0x04 (0001ms, 0450ms total)
T2388 001:250 JLINK_ReadMemEx(0x20000014, 0x0001 Bytes, ..., AccessWidth = 33554432)Mis-aligned memory write: Address: 0x20000014, NumBytes: 1, Alignment: 2 (Halfword-aligned)
  ***** Mis-aligned memory write: Address: 0x20000014, NumBytes: 1, Alignment: 2 (Halfword-aligned) -- CPU_ReadMem(1 bytes @ 0x20000014) -- Data:  00  returns 0x01 (0001ms, 0451ms total)
T16F0 001:352 JLINK_ReadMemEx(0x080002B4, 0x0002 Bytes, ..., AccessWidth = 33554432)Mis-aligned memory write: Address: 0x080002B4, NumBytes: 2, Alignment: 2 (Halfword-aligned)
  ***** Mis-aligned memory write: Address: 0x080002B4, NumBytes: 2, Alignment: 2 (Halfword-aligned) -- CPU_ReadMem(2 bytes @ 0x080002B4) -- Data:  0A 48  returns 0x02 (0001ms, 0452ms total)
T16F0 001:353 JLINK_SetBPEx(Addr = 0x0800D944, Type = 0xFFFFFFF2)  returns 0x00000001 (0000ms, 0452ms total)
T16F0 001:353 JLINK_Go() -- CPU_WriteMem(4 bytes @ 0xE0002008) -- CPU_WriteMem(4 bytes @ 0xE000200C) -- CPU_WriteMem(4 bytes @ 0xE0002010) -- CPU_WriteMem(4 bytes @ 0xE0002014) -- CPU_WriteMem(4 bytes @ 0xE0002018) -- CPU_WriteMem(4 bytes @ 0xE000201C) (0007ms, 0459ms total)
T16F0 001:460 JLINK_IsHalted()  returns FALSE (0001ms, 0460ms total)
T16F0 001:561 JLINK_IsHalted()  returns FALSE (0001ms, 0460ms total)
T16F0 001:662 JLINK_IsHalted()  returns TRUE (0002ms, 0461ms total)
T16F0 001:664 JLINK_Halt()  returns 0x00 (0000ms, 0459ms total)
T16F0 001:664 JLINK_IsHalted()  returns TRUE (0000ms, 0459ms total)
T16F0 001:664 JLINK_IsHalted()  returns TRUE (0000ms, 0459ms total)
T16F0 001:664 JLINK_IsHalted()  returns TRUE (0000ms, 0459ms total)
T16F0 001:664 JLINK_ReadReg(R15 (PC))  returns 0x0800D944 (0000ms, 0459ms total)
T16F0 001:664 JLINK_ReadReg(XPSR)  returns 0x01000000 (0000ms, 0459ms total)
T16F0 001:665 JLINK_ClrBPEx(BPHandle = 0x00000001)  returns 0x00 (0000ms, 0460ms total)
T16F0 001:665 JLINK_ReadMemU32(0xE000ED30, 0x0001 Items, ...) -- CPU_ReadMem(4 bytes @ 0xE000ED30) -- Data:  02 00 00 00  returns 0x01 (0001ms, 0461ms total)
T16F0 001:666 JLINK_ReadMemU32(0xE0001028, 0x0001 Items, ...) -- CPU_ReadMem(4 bytes @ 0xE0001028) -- Data:  00 00 00 00  returns 0x01 (0001ms, 0462ms total)
T16F0 001:667 JLINK_ReadMemU32(0xE0001038, 0x0001 Items, ...) -- CPU_ReadMem(4 bytes @ 0xE0001038) -- Data:  00 02 00 00  returns 0x01 (0001ms, 0463ms total)
T16F0 001:668 JLINK_ReadMemU32(0xE0001048, 0x0001 Items, ...) -- CPU_ReadMem(4 bytes @ 0xE0001048) -- Data:  00 00 00 00  returns 0x01 (0001ms, 0464ms total)
T16F0 001:669 JLINK_ReadMemU32(0xE0001058, 0x0001 Items, ...) -- CPU_ReadMem(4 bytes @ 0xE0001058) -- Data:  00 00 00 00  returns 0x01 (0001ms, 0465ms total)
T16F0 001:670 JLINK_ReadReg(R0)  returns 0x20005A90 (0000ms, 0465ms total)
T16F0 001:670 JLINK_ReadReg(R1)  returns 0x20005C90 (0000ms, 0465ms total)
T16F0 001:670 JLINK_ReadReg(R2)  returns 0x20005C90 (0000ms, 0465ms total)
T16F0 001:670 JLINK_ReadReg(R3)  returns 0x20005C90 (0000ms, 0465ms total)
T16F0 001:670 JLINK_ReadReg(R4)  returns 0x00000000 (0001ms, 0466ms total)
T16F0 001:671 JLINK_ReadReg(R5)  returns 0x20005A2C (0000ms, 0466ms total)
T16F0 001:671 JLINK_ReadReg(R6)  returns 0x00000000 (0000ms, 0466ms total)
T16F0 001:671 JLINK_ReadReg(R7)  returns 0x00000000 (0000ms, 0466ms total)
T16F0 001:671 JLINK_ReadReg(R8)  returns 0x00000000 (0000ms, 0466ms total)
T16F0 001:671 JLINK_ReadReg(R9)  returns 0x00000000 (0000ms, 0466ms total)
T16F0 001:671 JLINK_ReadReg(R10)  returns 0x0801B8E8 (0000ms, 0466ms total)
T16F0 001:671 JLINK_ReadReg(R11)  returns 0x00000000 (0000ms, 0466ms total)
T16F0 001:671 JLINK_ReadReg(R12)  returns 0x20005A6C (0000ms, 0466ms total)
T16F0 001:671 JLINK_ReadReg(R13 (SP))  returns 0x20008190 (0000ms, 0466ms total)
T16F0 001:671 JLINK_ReadReg(R14)  returns 0x080002A3 (0000ms, 0466ms total)
T16F0 001:671 JLINK_ReadReg(R15 (PC))  returns 0x0800D944 (0001ms, 0467ms total)
T16F0 001:672 JLINK_ReadReg(XPSR)  returns 0x01000000 (0000ms, 0467ms total)
T16F0 001:672 JLINK_ReadReg(MSP)  returns 0x20008190 (0000ms, 0467ms total)
T16F0 001:672 JLINK_ReadReg(PSP)  returns 0x00000000 (0000ms, 0467ms total)
T16F0 001:672 JLINK_ReadReg(CFBP)  returns 0x04000000 (0000ms, 0467ms total)
T16F0 001:672 JLINK_ReadReg(FPSCR)  returns 0x03000000 (0002ms, 0469ms total)
T16F0 001:674 JLINK_ReadReg(FPS0)  returns 0x00000000 (0000ms, 0469ms total)
T16F0 001:674 JLINK_ReadReg(FPS1)  returns 0x00000000 (0001ms, 0470ms total)
T16F0 001:675 JLINK_ReadReg(FPS2)  returns 0x00000000 (0000ms, 0470ms total)
T16F0 001:675 JLINK_ReadReg(FPS3)  returns 0x00000000 (0000ms, 0470ms total)
T16F0 001:675 JLINK_ReadReg(FPS4)  returns 0x00000000 (0000ms, 0470ms total)
T16F0 001:675 JLINK_ReadReg(FPS5)  returns 0x00000000 (0000ms, 0470ms total)
T16F0 001:675 JLINK_ReadReg(FPS6)  returns 0x00000000 (0000ms, 0470ms total)
T16F0 001:675 JLINK_ReadReg(FPS7)  returns 0x00000000 (0000ms, 0470ms total)
T16F0 001:675 JLINK_ReadReg(FPS8)  returns 0x00000000 (0000ms, 0470ms total)
T16F0 001:675 JLINK_ReadReg(FPS9)  returns 0x00000000 (0000ms, 0470ms total)
T16F0 001:675 JLINK_ReadReg(FPS10)  returns 0x00000000 (0000ms, 0470ms total)
T16F0 001:675 JLINK_ReadReg(FPS11)  returns 0x00000000 (0000ms, 0470ms total)
T16F0 001:675 JLINK_ReadReg(FPS12)  returns 0x00000000 (0000ms, 0470ms total)
T16F0 001:675 JLINK_ReadReg(FPS13)  returns 0x00000000 (0001ms, 0471ms total)
T16F0 001:676 JLINK_ReadReg(FPS14)  returns 0x00000000 (0000ms, 0471ms total)
T16F0 001:676 JLINK_ReadReg(FPS15)  returns 0x00000000 (0000ms, 0471ms total)
T16F0 001:676 JLINK_ReadReg(FPS16)  returns 0x00000000 (0000ms, 0471ms total)
T16F0 001:676 JLINK_ReadReg(FPS17)  returns 0x00000000 (0000ms, 0471ms total)
T16F0 001:676 JLINK_ReadReg(FPS18)  returns 0x00000000 (0000ms, 0471ms total)
T16F0 001:676 JLINK_ReadReg(FPS19)  returns 0x00000000 (0000ms, 0471ms total)
T16F0 001:676 JLINK_ReadReg(FPS20)  returns 0x00000000 (0000ms, 0471ms total)
T16F0 001:676 JLINK_ReadReg(FPS21)  returns 0x00000000 (0000ms, 0471ms total)
T16F0 001:676 JLINK_ReadReg(FPS22)  returns 0x00000000 (0000ms, 0471ms total)
T16F0 001:676 JLINK_ReadReg(FPS23)  returns 0x00000000 (0000ms, 0471ms total)
T16F0 001:676 JLINK_ReadReg(FPS24)  returns 0x00000000 (0000ms, 0471ms total)
T16F0 001:676 JLINK_ReadReg(FPS25)  returns 0x00000000 (0001ms, 0472ms total)
T16F0 001:677 JLINK_ReadReg(FPS26)  returns 0x00000000 (0000ms, 0472ms total)
T16F0 001:677 JLINK_ReadReg(FPS27)  returns 0x00000000 (0000ms, 0472ms total)
T16F0 001:677 JLINK_ReadReg(FPS28)  returns 0x00000000 (0000ms, 0472ms total)
T16F0 001:677 JLINK_ReadReg(FPS29)  returns 0x00000000 (0000ms, 0472ms total)
T16F0 001:677 JLINK_ReadReg(FPS30)  returns 0x00000000 (0000ms, 0472ms total)
T16F0 001:677 JLINK_ReadReg(FPS31)  returns 0x00000000 (0000ms, 0472ms total)
T2388 001:683 JLINK_ReadMemEx(0x2000081C, 0x0004 Bytes, ..., AccessWidth = 33554432)Mis-aligned memory write: Address: 0x2000081C, NumBytes: 4, Alignment: 2 (Halfword-aligned)
  ***** Mis-aligned memory write: Address: 0x2000081C, NumBytes: 4, Alignment: 2 (Halfword-aligned) -- CPU_ReadMem(4 bytes @ 0x2000081C) -- Data:  00 00 00 00  returns 0x04 (0002ms, 0474ms total)
T2388 001:685 JLINK_ReadMemEx(0x20000820, 0x0004 Bytes, ..., AccessWidth = 33554432)Mis-aligned memory write: Address: 0x20000820, NumBytes: 4, Alignment: 2 (Halfword-aligned)
  ***** Mis-aligned memory write: Address: 0x20000820, NumBytes: 4, Alignment: 2 (Halfword-aligned) -- CPU_ReadMem(4 bytes @ 0x20000820) -- Data:  00 00 00 00  returns 0x04 (0001ms, 0475ms total)
T2388 001:690 JLINK_ReadMemEx(0x00000000, 0x0004 Bytes, ..., AccessWidth = 33554432)Mis-aligned memory write: Address: 0x00000000, NumBytes: 4, Alignment: 2 (Halfword-aligned)
  ***** Mis-aligned memory write: Address: 0x00000000, NumBytes: 4, Alignment: 2 (Halfword-aligned) -- CPU_ReadMem(4 bytes @ 0x00000000) -- Data:  90 81 00 20  returns 0x04 (0001ms, 0476ms total)
T2388 001:693 JLINK_ReadMemEx(0x20000014, 0x0001 Bytes, ..., AccessWidth = 33554432)Mis-aligned memory write: Address: 0x20000014, NumBytes: 1, Alignment: 2 (Halfword-aligned)
  ***** Mis-aligned memory write: Address: 0x20000014, NumBytes: 1, Alignment: 2 (Halfword-aligned) -- CPU_ReadMem(1 bytes @ 0x20000014) -- Data:  00  returns 0x01 (0001ms, 0477ms total)
T2388 001:708 JLINK_ReadMemEx(0x0800D844, 0x003C Bytes, ..., AccessWidth = 33554432)Mis-aligned memory write: Address: 0x0800D844, NumBytes: 60, Alignment: 2 (Halfword-aligned)
  ***** Mis-aligned memory write: Address: 0x0800D844, NumBytes: 60, Alignment: 2 (Halfword-aligned) -- CPU_ReadMem(64 bytes @ 0x0800D840) -- Updating DA cache (64 bytes @ 0x0800D840) -- Read from DA cache (60 bytes @ 0x0800D844) -- Data:  A0 68 07 F0 17 FE 41 EC 10 0B F8 F7 6F FA 51 EC ...  returns 0x3C (0002ms, 0479ms total)
T2388 001:710 JLINK_ReadMemEx(0x0800D880, 0x003C Bytes, ..., AccessWidth = 33554432)Mis-aligned memory write: Address: 0x0800D880, NumBytes: 60, Alignment: 2 (Halfword-aligned)
  ***** Mis-aligned memory write: Address: 0x0800D880, NumBytes: 60, Alignment: 2 (Halfword-aligned) -- CPU_ReadMem(64 bytes @ 0x0800D880) -- Updating DA cache (64 bytes @ 0x0800D880) -- Read from DA cache (60 bytes @ 0x0800D880) -- Data:  FB FD 41 EC 10 0B F8 F7 43 FB 51 EC 10 0B 07 F0 ...  returns 0x3C (0001ms, 0480ms total)
T2388 001:711 JLINK_ReadMemEx(0x0800D8BC, 0x003C Bytes, ..., AccessWidth = 33554432)Mis-aligned memory write: Address: 0x0800D8BC, NumBytes: 60, Alignment: 2 (Halfword-aligned)
  ***** Mis-aligned memory write: Address: 0x0800D8BC, NumBytes: 60, Alignment: 2 (Halfword-aligned) -- CPU_ReadMem(64 bytes @ 0x0800D8C0) -- Updating DA cache (64 bytes @ 0x0800D8C0) -- Read from DA cache (60 bytes @ 0x0800D8BC) -- Data:  70 EE C1 0A 60 EE 88 0A C5 ED 00 0A 6B EE 29 0A ...  returns 0x3C (0001ms, 0481ms total)
T2388 001:712 JLINK_ReadMemEx(0x0800D8F8, 0x003C Bytes, ..., AccessWidth = 33554432)Mis-aligned memory write: Address: 0x0800D8F8, NumBytes: 60, Alignment: 2 (Halfword-aligned)
  ***** Mis-aligned memory write: Address: 0x0800D8F8, NumBytes: 60, Alignment: 2 (Halfword-aligned) -- CPU_ReadMem(64 bytes @ 0x0800D900) -- Updating DA cache (64 bytes @ 0x0800D900) -- Read from DA cache (60 bytes @ 0x0800D8F8) -- Data:  00 00 00 00 10 B5 FD F7 A3 FC 32 20 FA F7 12 F9 ...  returns 0x3C (0002ms, 0483ms total)
T2388 001:714 JLINK_ReadMemEx(0x0800D934, 0x003C Bytes, ..., AccessWidth = 33554432)Mis-aligned memory write: Address: 0x0800D934, NumBytes: 60, Alignment: 2 (Halfword-aligned)
  ***** Mis-aligned memory write: Address: 0x0800D934, NumBytes: 60, Alignment: 2 (Halfword-aligned) -- CPU_ReadMem(64 bytes @ 0x0800D940) -- Updating DA cache (64 bytes @ 0x0800D940) -- Read from DA cache (60 bytes @ 0x0800D934) -- Data:  A8 FE C0 22 42 21 18 20 FD F7 A3 FE 01 20 10 BD ...  returns 0x3C (0001ms, 0484ms total)
T16F0 015:713 JLINK_ReadMemEx(0x0800D944, 0x0002 Bytes, ..., AccessWidth = 33554432)Mis-aligned memory write: Address: 0x0800D944, NumBytes: 2, Alignment: 2 (Halfword-aligned)
  ***** Mis-aligned memory write: Address: 0x0800D944, NumBytes: 2, Alignment: 2 (Halfword-aligned) -- Read from DA cache (2 bytes @ 0x0800D944) -- Data:  10 B5  returns 0x02 (0005ms, 0489ms total)
T16F0 015:718 JLINK_SetBPEx(Addr = 0x080143E0, Type = 0xFFFFFFF2)  returns 0x00000002 (0000ms, 0489ms total)
T16F0 015:718 JLINK_Go() -- CPU_WriteMem(4 bytes @ 0xE0002008) (0003ms, 0492ms total)
T16F0 015:821 JLINK_IsHalted()  returns FALSE (0001ms, 0493ms total)
T16F0 015:922 JLINK_IsHalted()  returns TRUE (0002ms, 0494ms total)
T16F0 015:924 JLINK_Halt()  returns 0x00 (0000ms, 0492ms total)
T16F0 015:924 JLINK_IsHalted()  returns TRUE (0000ms, 0492ms total)
T16F0 015:924 JLINK_IsHalted()  returns TRUE (0000ms, 0492ms total)
T16F0 015:924 JLINK_IsHalted()  returns TRUE (0000ms, 0492ms total)
T16F0 015:924 JLINK_ReadReg(R15 (PC))  returns 0x080143E0 (0000ms, 0492ms total)
T16F0 015:924 JLINK_ReadReg(XPSR)  returns 0x61000000 (0001ms, 0493ms total)
T16F0 015:925 JLINK_ClrBPEx(BPHandle = 0x00000002)  returns 0x00 (0000ms, 0493ms total)
T16F0 015:925 JLINK_ReadMemU32(0xE000ED30, 0x0001 Items, ...) -- CPU_ReadMem(4 bytes @ 0xE000ED30) -- Data:  02 00 00 00  returns 0x01 (0001ms, 0494ms total)
T16F0 015:926 JLINK_ReadMemU32(0xE0001028, 0x0001 Items, ...) -- CPU_ReadMem(4 bytes @ 0xE0001028) -- Data:  00 00 00 00  returns 0x01 (0001ms, 0495ms total)
T16F0 015:927 JLINK_ReadMemU32(0xE0001038, 0x0001 Items, ...) -- CPU_ReadMem(4 bytes @ 0xE0001038) -- Data:  00 02 00 00  returns 0x01 (0001ms, 0496ms total)
T16F0 015:928 JLINK_ReadMemU32(0xE0001048, 0x0001 Items, ...) -- CPU_ReadMem(4 bytes @ 0xE0001048) -- Data:  00 00 00 00  returns 0x01 (0001ms, 0497ms total)
T16F0 015:929 JLINK_ReadMemU32(0xE0001058, 0x0001 Items, ...) -- CPU_ReadMem(4 bytes @ 0xE0001058) -- Data:  00 00 00 00  returns 0x01 (0001ms, 0498ms total)
T16F0 015:930 JLINK_ReadReg(R0)  returns 0x00000000 (0000ms, 0498ms total)
T16F0 015:930 JLINK_ReadReg(R1)  returns 0x00000353 (0000ms, 0498ms total)
T16F0 015:930 JLINK_ReadReg(R2)  returns 0x00000000 (0001ms, 0499ms total)
T16F0 015:931 JLINK_ReadReg(R3)  returns 0x00000000 (0000ms, 0499ms total)
T16F0 015:931 JLINK_ReadReg(R4)  returns 0x00000320 (0000ms, 0499ms total)
T16F0 015:931 JLINK_ReadReg(R5)  returns 0x20005A2C (0000ms, 0499ms total)
T16F0 015:931 JLINK_ReadReg(R6)  returns 0x00000000 (0000ms, 0499ms total)
T16F0 015:931 JLINK_ReadReg(R7)  returns 0x00000000 (0000ms, 0499ms total)
T16F0 015:931 JLINK_ReadReg(R8)  returns 0x00000000 (0000ms, 0499ms total)
T16F0 015:931 JLINK_ReadReg(R9)  returns 0x00000000 (0000ms, 0499ms total)
T16F0 015:931 JLINK_ReadReg(R10)  returns 0x0801B8E8 (0000ms, 0499ms total)
T16F0 015:931 JLINK_ReadReg(R11)  returns 0x00000000 (0000ms, 0499ms total)
T16F0 015:931 JLINK_ReadReg(R12)  returns 0x00000000 (0000ms, 0499ms total)
T16F0 015:931 JLINK_ReadReg(R13 (SP))  returns 0x200074E0 (0000ms, 0499ms total)
T16F0 015:931 JLINK_ReadReg(R14)  returns 0x0800A293 (0001ms, 0500ms total)
T16F0 015:932 JLINK_ReadReg(R15 (PC))  returns 0x080143E0 (0000ms, 0500ms total)
T16F0 015:932 JLINK_ReadReg(XPSR)  returns 0x61000000 (0000ms, 0500ms total)
T16F0 015:932 JLINK_ReadReg(MSP)  returns 0x200074E0 (0000ms, 0500ms total)
T16F0 015:932 JLINK_ReadReg(PSP)  returns 0x00000000 (0000ms, 0500ms total)
T16F0 015:932 JLINK_ReadReg(CFBP)  returns 0x04000001 (0000ms, 0500ms total)
T16F0 015:932 JLINK_ReadReg(FPSCR)  returns 0x03000000 (0003ms, 0503ms total)
T16F0 015:935 JLINK_ReadReg(FPS0)  returns 0x00000000 (0000ms, 0503ms total)
T16F0 015:935 JLINK_ReadReg(FPS1)  returns 0x00000000 (0000ms, 0503ms total)
T16F0 015:935 JLINK_ReadReg(FPS2)  returns 0x00000000 (0000ms, 0503ms total)
T16F0 015:935 JLINK_ReadReg(FPS3)  returns 0x00000000 (0000ms, 0503ms total)
T16F0 015:935 JLINK_ReadReg(FPS4)  returns 0x00000000 (0000ms, 0503ms total)
T16F0 015:935 JLINK_ReadReg(FPS5)  returns 0x00000000 (0000ms, 0503ms total)
T16F0 015:935 JLINK_ReadReg(FPS6)  returns 0x00000000 (0000ms, 0503ms total)
T16F0 015:935 JLINK_ReadReg(FPS7)  returns 0x00000000 (0000ms, 0503ms total)
T16F0 015:935 JLINK_ReadReg(FPS8)  returns 0x00000000 (0000ms, 0503ms total)
T16F0 015:935 JLINK_ReadReg(FPS9)  returns 0x00000000 (0001ms, 0504ms total)
T16F0 015:936 JLINK_ReadReg(FPS10)  returns 0x00000000 (0000ms, 0504ms total)
T16F0 015:936 JLINK_ReadReg(FPS11)  returns 0x00000000 (0000ms, 0504ms total)
T16F0 015:936 JLINK_ReadReg(FPS12)  returns 0x00000000 (0000ms, 0504ms total)
T16F0 015:936 JLINK_ReadReg(FPS13)  returns 0x00000000 (0000ms, 0504ms total)
T16F0 015:936 JLINK_ReadReg(FPS14)  returns 0x00000000 (0000ms, 0504ms total)
T16F0 015:936 JLINK_ReadReg(FPS15)  returns 0x00000000 (0000ms, 0504ms total)
T16F0 015:936 JLINK_ReadReg(FPS16)  returns 0x00000000 (0000ms, 0504ms total)
T16F0 015:936 JLINK_ReadReg(FPS17)  returns 0x00000000 (0000ms, 0504ms total)
T16F0 015:936 JLINK_ReadReg(FPS18)  returns 0x00000000 (0000ms, 0504ms total)
T16F0 015:936 JLINK_ReadReg(FPS19)  returns 0x00000000 (0000ms, 0504ms total)
T16F0 015:936 JLINK_ReadReg(FPS20)  returns 0x00000000 (0000ms, 0504ms total)
T16F0 015:937 JLINK_ReadReg(FPS21)  returns 0x00000000 (0000ms, 0505ms total)
T16F0 015:937 JLINK_ReadReg(FPS22)  returns 0x00000000 (0000ms, 0505ms total)
T16F0 015:937 JLINK_ReadReg(FPS23)  returns 0x00000000 (0000ms, 0505ms total)
T16F0 015:937 JLINK_ReadReg(FPS24)  returns 0x00000000 (0000ms, 0505ms total)
T16F0 015:937 JLINK_ReadReg(FPS25)  returns 0x00000000 (0000ms, 0505ms total)
T16F0 015:937 JLINK_ReadReg(FPS26)  returns 0x00000000 (0000ms, 0505ms total)
T16F0 015:937 JLINK_ReadReg(FPS27)  returns 0x00000000 (0000ms, 0505ms total)
T16F0 015:937 JLINK_ReadReg(FPS28)  returns 0x00000000 (0000ms, 0505ms total)
T16F0 015:937 JLINK_ReadReg(FPS29)  returns 0x00000000 (0000ms, 0505ms total)
T16F0 015:937 JLINK_ReadReg(FPS30)  returns 0x00000000 (0000ms, 0505ms total)
T16F0 015:937 JLINK_ReadReg(FPS31)  returns 0x00000000 (0000ms, 0505ms total)
T2388 015:939 JLINK_ReadMemEx(0x200074E4, 0x0004 Bytes, ..., AccessWidth = 33554432)Mis-aligned memory write: Address: 0x200074E4, NumBytes: 4, Alignment: 2 (Halfword-aligned)
  ***** Mis-aligned memory write: Address: 0x200074E4, NumBytes: 4, Alignment: 2 (Halfword-aligned) -- CPU_ReadMem(4 bytes @ 0x200074E4) -- Data:  DD D6 00 08  returns 0x04 (0001ms, 0506ms total)
T2388 015:942 JLINK_ReadMemEx(0x200074E0, 0x0004 Bytes, ..., AccessWidth = 33554432)Mis-aligned memory write: Address: 0x200074E0, NumBytes: 4, Alignment: 2 (Halfword-aligned)
  ***** Mis-aligned memory write: Address: 0x200074E0, NumBytes: 4, Alignment: 2 (Halfword-aligned) -- CPU_ReadMem(4 bytes @ 0x200074E0) -- Data:  20 03 00 00  returns 0x04 (0001ms, 0507ms total)
T2388 015:943 JLINK_ReadMemEx(0x2000816C, 0x0004 Bytes, ..., AccessWidth = 33554432)Mis-aligned memory write: Address: 0x2000816C, NumBytes: 4, Alignment: 2 (Halfword-aligned)
  ***** Mis-aligned memory write: Address: 0x2000816C, NumBytes: 4, Alignment: 2 (Halfword-aligned) -- CPU_ReadMem(4 bytes @ 0x2000816C) -- Data:  5B AE 00 08  returns 0x04 (0001ms, 0508ms total)
T2388 015:944 JLINK_ReadMemEx(0x20008168, 0x0004 Bytes, ..., AccessWidth = 33554432)Mis-aligned memory write: Address: 0x20008168, NumBytes: 4, Alignment: 2 (Halfword-aligned)
  ***** Mis-aligned memory write: Address: 0x20008168, NumBytes: 4, Alignment: 2 (Halfword-aligned) -- CPU_ReadMem(4 bytes @ 0x20008168) -- Data:  00 00 00 00  returns 0x04 (0001ms, 0509ms total)
T2388 015:945 JLINK_ReadMemEx(0x20008174, 0x0004 Bytes, ..., AccessWidth = 33554432)Mis-aligned memory write: Address: 0x20008174, NumBytes: 4, Alignment: 2 (Halfword-aligned)
  ***** Mis-aligned memory write: Address: 0x20008174, NumBytes: 4, Alignment: 2 (Halfword-aligned) -- CPU_ReadMem(4 bytes @ 0x20008174) -- Data:  25 02 01 08  returns 0x04 (0001ms, 0510ms total)
T2388 015:947 JLINK_ReadMemEx(0x20008170, 0x0004 Bytes, ..., AccessWidth = 33554432)Mis-aligned memory write: Address: 0x20008170, NumBytes: 4, Alignment: 2 (Halfword-aligned)
  ***** Mis-aligned memory write: Address: 0x20008170, NumBytes: 4, Alignment: 2 (Halfword-aligned) -- CPU_ReadMem(4 bytes @ 0x20008170) -- Data:  00 00 00 00  returns 0x04 (0001ms, 0511ms total)
T2388 015:948 JLINK_ReadMemEx(0x2000817C, 0x0004 Bytes, ..., AccessWidth = 33554432)Mis-aligned memory write: Address: 0x2000817C, NumBytes: 4, Alignment: 2 (Halfword-aligned)
  ***** Mis-aligned memory write: Address: 0x2000817C, NumBytes: 4, Alignment: 2 (Halfword-aligned) -- CPU_ReadMem(4 bytes @ 0x2000817C) -- Data:  1B 28 01 08  returns 0x04 (0001ms, 0512ms total)
T2388 015:949 JLINK_ReadMemEx(0x20008178, 0x0004 Bytes, ..., AccessWidth = 33554432)Mis-aligned memory write: Address: 0x20008178, NumBytes: 4, Alignment: 2 (Halfword-aligned)
  ***** Mis-aligned memory write: Address: 0x20008178, NumBytes: 4, Alignment: 2 (Halfword-aligned) -- CPU_ReadMem(4 bytes @ 0x20008178) -- Data:  00 00 00 00  returns 0x04 (0001ms, 0513ms total)
T2388 015:950 JLINK_ReadMemEx(0x20008184, 0x0004 Bytes, ..., AccessWidth = 33554432)Mis-aligned memory write: Address: 0x20008184, NumBytes: 4, Alignment: 2 (Halfword-aligned)
  ***** Mis-aligned memory write: Address: 0x20008184, NumBytes: 4, Alignment: 2 (Halfword-aligned) -- CPU_ReadMem(4 bytes @ 0x20008184) -- Data:  4F D9 00 08  returns 0x04 (0001ms, 0514ms total)
T2388 015:951 JLINK_ReadMemEx(0x20008180, 0x0004 Bytes, ..., AccessWidth = 33554432)Mis-aligned memory write: Address: 0x20008180, NumBytes: 4, Alignment: 2 (Halfword-aligned)
  ***** Mis-aligned memory write: Address: 0x20008180, NumBytes: 4, Alignment: 2 (Halfword-aligned) -- CPU_ReadMem(4 bytes @ 0x20008180) -- Data:  00 00 00 00  returns 0x04 (0001ms, 0515ms total)
T2388 015:952 JLINK_ReadMemEx(0x2000818C, 0x0004 Bytes, ..., AccessWidth = 33554432)Mis-aligned memory write: Address: 0x2000818C, NumBytes: 4, Alignment: 2 (Halfword-aligned)
  ***** Mis-aligned memory write: Address: 0x2000818C, NumBytes: 4, Alignment: 2 (Halfword-aligned) -- CPU_ReadMem(4 bytes @ 0x2000818C) -- Data:  A3 02 00 08  returns 0x04 (0001ms, 0516ms total)
T2388 015:957 JLINK_ReadMemEx(0x2000081C, 0x0004 Bytes, ..., AccessWidth = 33554432)Mis-aligned memory write: Address: 0x2000081C, NumBytes: 4, Alignment: 2 (Halfword-aligned)
  ***** Mis-aligned memory write: Address: 0x2000081C, NumBytes: 4, Alignment: 2 (Halfword-aligned) -- CPU_ReadMem(4 bytes @ 0x2000081C) -- Data:  00 00 00 00  returns 0x04 (0002ms, 0518ms total)
T2388 015:959 JLINK_ReadMemEx(0x20000820, 0x0004 Bytes, ..., AccessWidth = 33554432)Mis-aligned memory write: Address: 0x20000820, NumBytes: 4, Alignment: 2 (Halfword-aligned)
  ***** Mis-aligned memory write: Address: 0x20000820, NumBytes: 4, Alignment: 2 (Halfword-aligned) -- CPU_ReadMem(4 bytes @ 0x20000820) -- Data:  00 00 00 00  returns 0x04 (0001ms, 0519ms total)
T2388 015:964 JLINK_ReadMemEx(0x00000000, 0x0004 Bytes, ..., AccessWidth = 33554432)Mis-aligned memory write: Address: 0x00000000, NumBytes: 4, Alignment: 2 (Halfword-aligned)
  ***** Mis-aligned memory write: Address: 0x00000000, NumBytes: 4, Alignment: 2 (Halfword-aligned) -- CPU_ReadMem(4 bytes @ 0x00000000) -- Data:  90 81 00 20  returns 0x04 (0002ms, 0521ms total)
T2388 015:967 JLINK_ReadMemEx(0x20000014, 0x0001 Bytes, ..., AccessWidth = 33554432)Mis-aligned memory write: Address: 0x20000014, NumBytes: 1, Alignment: 2 (Halfword-aligned)
  ***** Mis-aligned memory write: Address: 0x20000014, NumBytes: 1, Alignment: 2 (Halfword-aligned) -- CPU_ReadMem(1 bytes @ 0x20000014) -- Data:  00  returns 0x01 (0001ms, 0522ms total)
T2388 015:999 JLINK_ReadMemEx(0x080143D8, 0x0028 Bytes, ..., AccessWidth = 33554432)Mis-aligned memory write: Address: 0x080143D8, NumBytes: 40, Alignment: 2 (Halfword-aligned)
  ***** Mis-aligned memory write: Address: 0x080143D8, NumBytes: 40, Alignment: 2 (Halfword-aligned) -- CPU_ReadMem(64 bytes @ 0x080143C0) -- Updating DA cache (64 bytes @ 0x080143C0) -- Read from DA cache (40 bytes @ 0x080143D8) -- Data:  0E 48 34 30 F5 F7 48 FF 0C 4A 68 3A 10 78 58 B1 ...  returns 0x28 (0002ms, 0524ms total)
T2388 016:001 JLINK_ReadMemEx(0x08014400, 0x0014 Bytes, ..., AccessWidth = 33554432)Mis-aligned memory write: Address: 0x08014400, NumBytes: 20, Alignment: 2 (Halfword-aligned)
  ***** Mis-aligned memory write: Address: 0x08014400, NumBytes: 20, Alignment: 2 (Halfword-aligned) -- CPU_ReadMem(64 bytes @ 0x08014400) -- Updating DA cache (64 bytes @ 0x08014400) -- Read from DA cache (20 bytes @ 0x08014400) -- Data:  FB F7 38 F8 BD E8 10 40 FB F7 40 B8 D2 E9 04 01 ...  returns 0x14 (0001ms, 0525ms total)
T2388 018:054 JLINK_ReadMemEx(0x20004060, 0x0001 Bytes, ..., AccessWidth = 33554432)Mis-aligned memory write: Address: 0x20004060, NumBytes: 1, Alignment: 2 (Halfword-aligned)
  ***** Mis-aligned memory write: Address: 0x20004060, NumBytes: 1, Alignment: 2 (Halfword-aligned) -- CPU_ReadMem(1 bytes @ 0x20004060) -- Data:  01  returns 0x01 (0002ms, 0527ms total)
T2388 020:288 JLINK_ReadMemEx(0x20004070, 0x0004 Bytes, ..., AccessWidth = 33554432)Mis-aligned memory write: Address: 0x20004070, NumBytes: 4, Alignment: 2 (Halfword-aligned)
  ***** Mis-aligned memory write: Address: 0x20004070, NumBytes: 4, Alignment: 2 (Halfword-aligned) -- CPU_ReadMem(4 bytes @ 0x20004070) -- Data:  E0 FC FF FF  returns 0x04 (0003ms, 0530ms total)
T2388 020:291 JLINK_ReadMemEx(0x20004074, 0x0004 Bytes, ..., AccessWidth = 33554432)Mis-aligned memory write: Address: 0x20004074, NumBytes: 4, Alignment: 2 (Halfword-aligned)
  ***** Mis-aligned memory write: Address: 0x20004074, NumBytes: 4, Alignment: 2 (Halfword-aligned) -- CPU_ReadMem(4 bytes @ 0x20004074) -- Data:  20 03 00 00  returns 0x04 (0001ms, 0531ms total)
T2388 020:292 JLINK_ReadMemEx(0x20004078, 0x0004 Bytes, ..., AccessWidth = 33554432)Mis-aligned memory write: Address: 0x20004078, NumBytes: 4, Alignment: 2 (Halfword-aligned)
  ***** Mis-aligned memory write: Address: 0x20004078, NumBytes: 4, Alignment: 2 (Halfword-aligned) -- CPU_ReadMem(4 bytes @ 0x20004078) -- Data:  00 00 00 00  returns 0x04 (0001ms, 0532ms total)
T2388 020:293 JLINK_ReadMemEx(0x2000407C, 0x0004 Bytes, ..., AccessWidth = 33554432)Mis-aligned memory write: Address: 0x2000407C, NumBytes: 4, Alignment: 2 (Halfword-aligned)
  ***** Mis-aligned memory write: Address: 0x2000407C, NumBytes: 4, Alignment: 2 (Halfword-aligned) -- CPU_ReadMem(4 bytes @ 0x2000407C) -- Data:  00 00 00 00  returns 0x04 (0001ms, 0533ms total)
T2388 020:294 JLINK_ReadMemEx(0x20004080, 0x0004 Bytes, ..., AccessWidth = 33554432)Mis-aligned memory write: Address: 0x20004080, NumBytes: 4, Alignment: 2 (Halfword-aligned)
  ***** Mis-aligned memory write: Address: 0x20004080, NumBytes: 4, Alignment: 2 (Halfword-aligned) -- CPU_ReadMem(4 bytes @ 0x20004080) -- Data:  00 00 00 00  returns 0x04 (0001ms, 0534ms total)
T2388 020:295 JLINK_ReadMemEx(0x20004084, 0x0004 Bytes, ..., AccessWidth = 33554432)Mis-aligned memory write: Address: 0x20004084, NumBytes: 4, Alignment: 2 (Halfword-aligned)
  ***** Mis-aligned memory write: Address: 0x20004084, NumBytes: 4, Alignment: 2 (Halfword-aligned) -- CPU_ReadMem(4 bytes @ 0x20004084) -- Data:  00 00 00 00  returns 0x04 (0001ms, 0535ms total)
T2388 020:296 JLINK_ReadMemEx(0x20004088, 0x0004 Bytes, ..., AccessWidth = 33554432)Mis-aligned memory write: Address: 0x20004088, NumBytes: 4, Alignment: 2 (Halfword-aligned)
  ***** Mis-aligned memory write: Address: 0x20004088, NumBytes: 4, Alignment: 2 (Halfword-aligned) -- CPU_ReadMem(4 bytes @ 0x20004088) -- Data:  00 00 00 00  returns 0x04 (0001ms, 0536ms total)
T2388 020:297 JLINK_ReadMemEx(0x2000408C, 0x0004 Bytes, ..., AccessWidth = 33554432)Mis-aligned memory write: Address: 0x2000408C, NumBytes: 4, Alignment: 2 (Halfword-aligned)
  ***** Mis-aligned memory write: Address: 0x2000408C, NumBytes: 4, Alignment: 2 (Halfword-aligned) -- CPU_ReadMem(4 bytes @ 0x2000408C) -- Data:  00 00 00 00  returns 0x04 (0001ms, 0537ms total)
T16F0 024:719 JLINK_ReadMemEx(0x080143E0, 0x0002 Bytes, ..., AccessWidth = 33554432)Mis-aligned memory write: Address: 0x080143E0, NumBytes: 2, Alignment: 2 (Halfword-aligned)
  ***** Mis-aligned memory write: Address: 0x080143E0, NumBytes: 2, Alignment: 2 (Halfword-aligned) -- Read from DA cache (2 bytes @ 0x080143E0) -- Data:  0C 4A  returns 0x02 (0006ms, 0543ms total)
T16F0 024:725 JLINK_Go() -- CPU_WriteMem(4 bytes @ 0xE0002008) (0003ms, 0546ms total)
T16F0 024:828 JLINK_IsHalted()  returns FALSE (0001ms, 0547ms total)
T16F0 024:929 JLINK_IsHalted()  returns FALSE (0001ms, 0547ms total)
T16F0 025:030 JLINK_IsHalted()  returns FALSE (0001ms, 0547ms total)
T16F0 025:131 JLINK_IsHalted()  returns FALSE (0001ms, 0547ms total)
T16F0 025:232 JLINK_IsHalted()  returns FALSE (0001ms, 0547ms total)
T16F0 025:333 JLINK_ReadMemU32(0xE0001004, 0x0001 Items, ...) -- CPU is running -- CPU_ReadMem(4 bytes @ 0xE0001004) -- Data:  B6 DD 27 08  returns 0x01 (0001ms, 0547ms total)
T2388 025:335 JLINK_ReadMemEx(0x2000081C, 0x0004 Bytes, ..., AccessWidth = 33554432)Mis-aligned memory write: Address: 0x2000081C, NumBytes: 4, Alignment: 2 (Halfword-aligned)
  ***** Mis-aligned memory write: Address: 0x2000081C, NumBytes: 4, Alignment: 2 (Halfword-aligned) -- CPU is running -- CPU_ReadMem(4 bytes @ 0x2000081C) -- Data:  00 00 00 00  returns 0x04 (0001ms, 0548ms total)
T2388 025:337 JLINK_ReadMemEx(0x20000820, 0x0004 Bytes, ..., AccessWidth = 33554432)Mis-aligned memory write: Address: 0x20000820, NumBytes: 4, Alignment: 2 (Halfword-aligned)
  ***** Mis-aligned memory write: Address: 0x20000820, NumBytes: 4, Alignment: 2 (Halfword-aligned) -- CPU is running -- CPU_ReadMem(4 bytes @ 0x20000820) -- Data:  00 00 00 00  returns 0x04 (0000ms, 0548ms total)
T2388 025:340 JLINK_ReadMemEx(0x00000000, 0x0004 Bytes, ..., AccessWidth = 33554432)Mis-aligned memory write: Address: 0x00000000, NumBytes: 4, Alignment: 2 (Halfword-aligned)
  ***** Mis-aligned memory write: Address: 0x00000000, NumBytes: 4, Alignment: 2 (Halfword-aligned) -- CPU is running -- CPU_ReadMem(4 bytes @ 0x00000000) -- Data:  90 81 00 20  returns 0x04 (0001ms, 0549ms total)
T2388 025:342 JLINK_ReadMemEx(0x20000014, 0x0001 Bytes, ..., AccessWidth = 33554432)Mis-aligned memory write: Address: 0x20000014, NumBytes: 1, Alignment: 2 (Halfword-aligned)
  ***** Mis-aligned memory write: Address: 0x20000014, NumBytes: 1, Alignment: 2 (Halfword-aligned) -- CPU is running -- CPU_ReadMem(1 bytes @ 0x20000014) -- Data:  00  returns 0x01 (0001ms, 0550ms total)
T2388 025:375 JLINK_ReadMemEx(0x20004060, 0x0001 Bytes, ..., AccessWidth = 33554432)Mis-aligned memory write: Address: 0x20004060, NumBytes: 1, Alignment: 2 (Halfword-aligned)
  ***** Mis-aligned memory write: Address: 0x20004060, NumBytes: 1, Alignment: 2 (Halfword-aligned) -- CPU is running -- CPU_ReadMem(1 bytes @ 0x20004060) -- Data:  01  returns 0x01 (0002ms, 0552ms total)
T2388 025:377 JLINK_ReadMemEx(0x20004070, 0x0004 Bytes, ..., AccessWidth = 33554432)Mis-aligned memory write: Address: 0x20004070, NumBytes: 4, Alignment: 2 (Halfword-aligned)
  ***** Mis-aligned memory write: Address: 0x20004070, NumBytes: 4, Alignment: 2 (Halfword-aligned) -- CPU is running -- CPU_ReadMem(4 bytes @ 0x20004070) -- Data:  00 00 00 00  returns 0x04 (0001ms, 0553ms total)
T2388 025:379 JLINK_ReadMemEx(0x20004074, 0x0004 Bytes, ..., AccessWidth = 33554432)Mis-aligned memory write: Address: 0x20004074, NumBytes: 4, Alignment: 2 (Halfword-aligned)
  ***** Mis-aligned memory write: Address: 0x20004074, NumBytes: 4, Alignment: 2 (Halfword-aligned) -- CPU is running -- CPU_ReadMem(4 bytes @ 0x20004074) -- Data:  00 00 00 00  returns 0x04 (0001ms, 0554ms total)
T2388 025:381 JLINK_ReadMemEx(0x20004078, 0x0004 Bytes, ..., AccessWidth = 33554432)Mis-aligned memory write: Address: 0x20004078, NumBytes: 4, Alignment: 2 (Halfword-aligned)
  ***** Mis-aligned memory write: Address: 0x20004078, NumBytes: 4, Alignment: 2 (Halfword-aligned) -- CPU is running -- CPU_ReadMem(4 bytes @ 0x20004078) -- Data:  00 00 00 00  returns 0x04 (0001ms, 0555ms total)
T2388 025:382 JLINK_ReadMemEx(0x2000407C, 0x0004 Bytes, ..., AccessWidth = 33554432)Mis-aligned memory write: Address: 0x2000407C, NumBytes: 4, Alignment: 2 (Halfword-aligned)
  ***** Mis-aligned memory write: Address: 0x2000407C, NumBytes: 4, Alignment: 2 (Halfword-aligned) -- CPU is running -- CPU_ReadMem(4 bytes @ 0x2000407C) -- Data:  00 00 00 00  returns 0x04 (0001ms, 0556ms total)
T2388 025:383 JLINK_ReadMemEx(0x20004080, 0x0004 Bytes, ..., AccessWidth = 33554432)Mis-aligned memory write: Address: 0x20004080, NumBytes: 4, Alignment: 2 (Halfword-aligned)
  ***** Mis-aligned memory write: Address: 0x20004080, NumBytes: 4, Alignment: 2 (Halfword-aligned) -- CPU is running -- CPU_ReadMem(4 bytes @ 0x20004080) -- Data:  00 00 00 00  returns 0x04 (0001ms, 0557ms total)
T2388 025:384 JLINK_ReadMemEx(0x20004084, 0x0004 Bytes, ..., AccessWidth = 33554432)Mis-aligned memory write: Address: 0x20004084, NumBytes: 4, Alignment: 2 (Halfword-aligned)
  ***** Mis-aligned memory write: Address: 0x20004084, NumBytes: 4, Alignment: 2 (Halfword-aligned) -- CPU is running -- CPU_ReadMem(4 bytes @ 0x20004084) -- Data:  00 00 00 00  returns 0x04 (0001ms, 0558ms total)
